Time [s],Packet ID,Address,Data,Read/Write,ACK
1.250000,0,0x02,0xFF,Write,ACK
1.250000,0,0x02,0x09,Write,ACK
1.250000,0,0x02,0x90,Write,ACK
1.250000,0,0x02,0x00,Write,ACK
1.250200,1,0x03,0x01,Read,ACK
1.250200,1,0x03,0x11,Read,ACK
1.250200,1,0x03,0x01,Read,ACK
1.250200,1,0x03,0x5E,Read,ACK
1.250200,1,0x03,0x00,Read,ACK
1.250200,1,0x03,0xF0,Read,ACK
1.250200,1,0x03,0xFF,Read,ACK
1.250200,1,0x03,0xFF,Read,ACK
1.250200,1,0x03,0xFF,Read,ACK
1.250200,1,0x03,0xFF,Read,ACK
1.250200,1,0x03,0xFF,Read,ACK
1.250200,1,0x03,0xFF,Read,ACK
1.250200,1,0x03,0xFF,Read,ACK
1.250200,1,0x03,0xFF,Read,ACK
1.250200,1,0x03,0xFF,Read,ACK
1.250200,1,0x03,0xFF,Read,ACK
1.250200,1,0x03,0xFF,Read,ACK
1.250200,1,0x03,0xFF,Read,ACK
1.250200,1,0x03,0xFF,Read,ACK
1.250200,1,0x03,0xFF,Read,ACK
1.250200,1,0x03,0xFF,Read,ACK
1.250200,1,0x03,0xFF,Read,ACK
1.250200,1,0x03,0xFF,Read,ACK
1.250200,1,0x03,0xFF,Read,ACK
1.250200,1,0x03,0xFF,Read,ACK
1.250200,1,0x03,0xFF,Read,ACK
1.250200,1,0x03,0xFF,Read,ACK
1.250200,1,0x03,0xFF,Read,ACK
1.250200,1,0x03,0xFF,Read,ACK
1.250200,1,0x03,0xFF,Read,ACK
1.250200,1,0x03,0xFF,Read,ACK
1.250200,1,0x03,0xFF,Read,ACK
1.250200,1,0x03,0xFF,Read,ACK
1.250200,1,0x03,0xFF,Read,ACK
1.250200,1,0x03,0xFF,Read,ACK
1.250200,1,0x03,0xFF,Read,ACK
1.250200,1,0x03,0xFF,Read,ACK
1.250200,1,0x03,0xFF,Read,ACK
1.250200,1,0x03,0xFF,Read,ACK
1.250200,1,0x03,0xFF,Read,ACK
1.250200,1,0x03,0xFF,Read,ACK
1.250200,1,0x03,0xFF,Read,ACK
1.250200,1,0x03,0xFF,Read,ACK
1.250200,1,0x03,0xFF,Read,ACK
1.250200,1,0x03,0xFF,Read,ACK
1.250200,1,0x03,0xFF,Read,ACK
1.250200,1,0x03,0xFF,Read,ACK
1.250200,1,0x03,0xFF,Read,ACK
1.250200,1,0x03,0xFF,Read,ACK
1.250200,1,0x03,0xFF,Read,ACK
1.250200,1,0x03,0xFF,Read,ACK
1.250200,1,0x03,0xFF,Read,ACK
1.250200,1,0x03,0xFF,Read,ACK
1.250200,1,0x03,0xFF,Read,ACK
1.250200,1,0x03,0xFF,Read,ACK
1.250200,1,0x03,0xFF,Read,ACK
1.250200,1,0x03,0xFF,Read,ACK
1.250200,1,0x03,0xFF,Read,ACK
1.250200,1,0x03,0xFF,Read,ACK
1.250200,1,0x03,0xFF,Read,ACK
1.250200,1,0x03,0xFF,Read,ACK
1.250200,1,0x03,0xFF,Read,ACK
1.250200,1,0x03,0xFF,Read,ACK
1.250200,1,0x03,0xFF,Read,ACK
1.250200,1,0x03,0xFF,Read,ACK
1.250200,1,0x03,0xFF,Read,ACK
1.250200,1,0x03,0xFF,Read,ACK
1.250200,1,0x03,0xFF,Read,ACK
1.250200,1,0x03,0xFF,Read,ACK
1.250200,1,0x03,0xFF,Read,ACK
1.250200,1,0x03,0xFF,Read,ACK
1.250200,1,0x03,0xFF,Read,ACK
1.250200,1,0x03,0xFF,Read,ACK
1.250200,1,0x03,0x00,Read,ACK
1.250200,1,0x03,0x00,Read,ACK
1.250200,1,0x03,0x00,Read,ACK
1.250200,1,0x03,0x00,Read,ACK
1.250200,1,0x03,0x00,Read,ACK
1.250200,1,0x03,0x00,Read,ACK
1.250200,1,0x03,0x76,Read,NAK
1.350000,2,0x02,0xFF,Write,ACK
1.350000,2,0x02,0x09,Write,ACK
1.350000,2,0x02,0x90,Write,ACK
1.350000,2,0x02,0x00,Write,ACK
1.350200,3,0x03,0x01,Read,ACK
1.350200,3,0x03,0x12,Read,ACK
1.350200,3,0x03,0x01,Read,ACK
1.350200,3,0x03,0xC7,Read,ACK
1.350200,3,0x03,0x01,Read,ACK
1.350200,3,0x03,0x20,Read,ACK
1.350200,3,0x03,0xFF,Read,ACK
1.350200,3,0x03,0xFF,Read,ACK
1.350200,3,0x03,0xFF,Read,ACK
1.350200,3,0x03,0xFF,Read,ACK
1.350200,3,0x03,0xFF,Read,ACK
1.350200,3,0x03,0xFF,Read,ACK
1.350200,3,0x03,0xFF,Read,ACK
1.350200,3,0x03,0xFF,Read,ACK
1.350200,3,0x03,0xFF,Read,ACK
1.350200,3,0x03,0xFF,Read,ACK
1.350200,3,0x03,0xFF,Read,ACK
1.350200,3,0x03,0xFF,Read,ACK
1.350200,3,0x03,0xFF,Read,ACK
1.350200,3,0x03,0xFF,Read,ACK
1.350200,3,0x03,0xFF,Read,ACK
1.350200,3,0x03,0xFF,Read,ACK
1.350200,3,0x03,0xFF,Read,ACK
1.350200,3,0x03,0xFF,Read,ACK
1.350200,3,0x03,0xFF,Read,ACK
1.350200,3,0x03,0xFF,Read,ACK
1.350200,3,0x03,0xFF,Read,ACK
1.350200,3,0x03,0xFF,Read,ACK
1.350200,3,0x03,0xFF,Read,ACK
1.350200,3,0x03,0xFF,Read,ACK
1.350200,3,0x03,0xFF,Read,ACK
1.350200,3,0x03,0xFF,Read,ACK
1.350200,3,0x03,0xFF,Read,ACK
1.350200,3,0x03,0xFF,Read,ACK
1.350200,3,0x03,0xFF,Read,ACK
1.350200,3,0x03,0xFF,Read,ACK
1.350200,3,0x03,0xFF,Read,ACK
1.350200,3,0x03,0xFF,Read,ACK
1.350200,3,0x03,0xFF,Read,ACK
1.350200,3,0x03,0xFF,Read,ACK
1.350200,3,0x03,0xFF,Read,ACK
1.350200,3,0x03,0xFF,Read,ACK
1.350200,3,0x03,0xFF,Read,ACK
1.350200,3,0x03,0xFF,Read,ACK
1.350200,3,0x03,0xFF,Read,ACK
1.350200,3,0x03,0xFF,Read,ACK
1.350200,3,0x03,0xFF,Read,ACK
1.350200,3,0x03,0xFF,Read,ACK
1.350200,3,0x03,0xFF,Read,ACK
1.350200,3,0x03,0xFF,Read,ACK
1.350200,3,0x03,0xFF,Read,ACK
1.350200,3,0x03,0xFF,Read,ACK
1.350200,3,0x03,0xFF,Read,ACK
1.350200,3,0x03,0xFF,Read,ACK
1.350200,3,0x03,0xFF,Read,ACK
1.350200,3,0x03,0xFF,Read,ACK
1.350200,3,0x03,0xFF,Read,ACK
1.350200,3,0x03,0xFF,Read,ACK
1.350200,3,0x03,0xFF,Read,ACK
1.350200,3,0x03,0xFF,Read,ACK
1.350200,3,0x03,0xFF,Read,ACK
1.350200,3,0x03,0xFF,Read,ACK
1.350200,3,0x03,0xFF,Read,ACK
1.350200,3,0x03,0xFF,Read,ACK
1.350200,3,0x03,0xFF,Read,ACK
1.350200,3,0x03,0xFF,Read,ACK
1.350200,3,0x03,0xFF,Read,ACK
1.350200,3,0x03,0xFF,Read,ACK
1.350200,3,0x03,0xFF,Read,ACK
1.350200,3,0x03,0xFF,Read,ACK
1.350200,3,0x03,0xFF,Read,ACK
1.350200,3,0x03,0xFF,Read,ACK
1.350200,3,0x03,0xFF,Read,ACK
1.350200,3,0x03,0x00,Read,ACK
1.350200,3,0x03,0x00,Read,ACK
1.350200,3,0x03,0x00,Read,ACK
1.350200,3,0x03,0x00,Read,ACK
1.350200,3,0x03,0x00,Read,ACK
1.350200,3,0x03,0x00,Read,ACK
1.350200,3,0x03,0x7A,Read,NAK
1.450000,4,0x02,0xFF,Write,ACK
1.450000,4,0x02,0x09,Write,ACK
1.450000,4,0x02,0x90,Write,ACK
1.450000,4,0x02,0x00,Write,ACK
1.450200,5,0x03,0x01,Read,ACK
1.450200,5,0x03,0x12,Read,ACK
1.450200,5,0x03,0x02,Read,ACK
1.450200,5,0x03,0x30,Read,ACK
1.450200,5,0x03,0x01,Read,ACK
1.450200,5,0x03,0x50,Read,ACK
1.450200,5,0x03,0xFF,Read,ACK
1.450200,5,0x03,0xFF,Read,ACK
1.450200,5,0x03,0xFF,Read,ACK
1.450200,5,0x03,0xFF,Read,ACK
1.450200,5,0x03,0xFF,Read,ACK
1.450200,5,0x03,0xFF,Read,ACK
1.450200,5,0x03,0xFF,Read,ACK
1.450200,5,0x03,0xFF,Read,ACK
1.450200,5,0x03,0xFF,Read,ACK
1.450200,5,0x03,0xFF,Read,ACK
1.450200,5,0x03,0xFF,Read,ACK
1.450200,5,0x03,0xFF,Read,ACK
1.450200,5,0x03,0xFF,Read,ACK
1.450200,5,0x03,0xFF,Read,ACK
1.450200,5,0x03,0xFF,Read,ACK
1.450200,5,0x03,0xFF,Read,ACK
1.450200,5,0x03,0xFF,Read,ACK
1.450200,5,0x03,0xFF,Read,ACK
1.450200,5,0x03,0xFF,Read,ACK
1.450200,5,0x03,0xFF,Read,ACK
1.450200,5,0x03,0xFF,Read,ACK
1.450200,5,0x03,0xFF,Read,ACK
1.450200,5,0x03,0xFF,Read,ACK
1.450200,5,0x03,0xFF,Read,ACK
1.450200,5,0x03,0xFF,Read,ACK
1.450200,5,0x03,0xFF,Read,ACK
1.450200,5,0x03,0xFF,Read,ACK
1.450200,5,0x03,0xFF,Read,ACK
1.450200,5,0x03,0xFF,Read,ACK
1.450200,5,0x03,0xFF,Read,ACK
1.450200,5,0x03,0xFF,Read,ACK
1.450200,5,0x03,0xFF,Read,ACK
1.450200,5,0x03,0xFF,Read,ACK
1.450200,5,0x03,0xFF,Read,ACK
1.450200,5,0x03,0xFF,Read,ACK
1.450200,5,0x03,0xFF,Read,ACK
1.450200,5,0x03,0xFF,Read,ACK
1.450200,5,0x03,0xFF,Read,ACK
1.450200,5,0x03,0xFF,Read,ACK
1.450200,5,0x03,0xFF,Read,ACK
1.450200,5,0x03,0xFF,Read,ACK
1.450200,5,0x03,0xFF,Read,ACK
1.450200,5,0x03,0xFF,Read,ACK
1.450200,5,0x03,0xFF,Read,ACK
1.450200,5,0x03,0xFF,Read,ACK
1.450200,5,0x03,0xFF,Read,ACK
1.450200,5,0x03,0xFF,Read,ACK
1.450200,5,0x03,0xFF,Read,ACK
1.450200,5,0x03,0xFF,Read,ACK
1.450200,5,0x03,0xFF,Read,ACK
1.450200,5,0x03,0xFF,Read,ACK
1.450200,5,0x03,0xFF,Read,ACK
1.450200,5,0x03,0xFF,Read,ACK
1.450200,5,0x03,0xFF,Read,ACK
1.450200,5,0x03,0xFF,Read,ACK
1.450200,5,0x03,0xFF,Read,ACK
1.450200,5,0x03,0xFF,Read,ACK
1.450200,5,0x03,0xFF,Read,ACK
1.450200,5,0x03,0xFF,Read,ACK
1.450200,5,0x03,0xFF,Read,ACK
1.450200,5,0x03,0xFF,Read,ACK
1.450200,5,0x03,0xFF,Read,ACK
1.450200,5,0x03,0xFF,Read,ACK
1.450200,5,0x03,0xFF,Read,ACK
1.450200,5,0x03,0xFF,Read,ACK
1.450200,5,0x03,0xFF,Read,ACK
1.450200,5,0x03,0xFF,Read,ACK
1.450200,5,0x03,0x00,Read,ACK
1.450200,5,0x03,0x00,Read,ACK
1.450200,5,0x03,0x00,Read,ACK
1.450200,5,0x03,0x00,Read,ACK
1.450200,5,0x03,0x00,Read,ACK
1.450200,5,0x03,0x00,Read,ACK
1.450200,5,0x03,0x19,Read,NAK
1.550000,6,0x02,0xFF,Write,ACK
1.550000,6,0x02,0x09,Write,ACK
1.550000,6,0x02,0x90,Write,ACK
1.550000,6,0x02,0x00,Write,ACK
1.550200,7,0x03,0x02,Read,ACK
1.550200,7,0x03,0x12,Read,ACK
1.550200,7,0x03,0x02,Read,ACK
1.550200,7,0x03,0x99,Read,ACK
1.550200,7,0x03,0x01,Read,ACK
1.550200,7,0x03,0x80,Read,ACK
1.550200,7,0x03,0xFF,Read,ACK
1.550200,7,0x03,0xFF,Read,ACK
1.550200,7,0x03,0x21,Read,ACK
1.550200,7,0x03,0x08,Read,ACK
1.550200,7,0x03,0x98,Read,ACK
1.550200,7,0x03,0x01,Read,ACK
1.550200,7,0x03,0x04,Read,ACK
1.550200,7,0x03,0xFF,Read,ACK
1.550200,7,0x03,0xFF,Read,ACK
1.550200,7,0x03,0xFF,Read,ACK
1.550200,7,0x03,0xFF,Read,ACK
1.550200,7,0x03,0xFF,Read,ACK
1.550200,7,0x03,0xFF,Read,ACK
1.550200,7,0x03,0xFF,Read,ACK
1.550200,7,0x03,0xFF,Read,ACK
1.550200,7,0x03,0xFF,Read,ACK
1.550200,7,0x03,0xFF,Read,ACK
1.550200,7,0x03,0xFF,Read,ACK
1.550200,7,0x03,0xFF,Read,ACK
1.550200,7,0x03,0xFF,Read,ACK
1.550200,7,0x03,0xFF,Read,ACK
1.550200,7,0x03,0xFF,Read,ACK
1.550200,7,0x03,0xFF,Read,ACK
1.550200,7,0x03,0xFF,Read,ACK
1.550200,7,0x03,0xFF,Read,ACK
1.550200,7,0x03,0xFF,Read,ACK
1.550200,7,0x03,0xFF,Read,ACK
1.550200,7,0x03,0xFF,Read,ACK
1.550200,7,0x03,0xFF,Read,ACK
1.550200,7,0x03,0xFF,Read,ACK
1.550200,7,0x03,0xFF,Read,ACK
1.550200,7,0x03,0xFF,Read,ACK
1.550200,7,0x03,0xFF,Read,ACK
1.550200,7,0x03,0xFF,Read,ACK
1.550200,7,0x03,0xFF,Read,ACK
1.550200,7,0x03,0xFF,Read,ACK
1.550200,7,0x03,0xFF,Read,ACK
1.550200,7,0x03,0xFF,Read,ACK
1.550200,7,0x03,0xFF,Read,ACK
1.550200,7,0x03,0xFF,Read,ACK
1.550200,7,0x03,0xFF,Read,ACK
1.550200,7,0x03,0xFF,Read,ACK
1.550200,7,0x03,0xFF,Read,ACK
1.550200,7,0x03,0xFF,Read,ACK
1.550200,7,0x03,0xFF,Read,ACK
1.550200,7,0x03,0xFF,Read,ACK
1.550200,7,0x03,0xFF,Read,ACK
1.550200,7,0x03,0xFF,Read,ACK
1.550200,7,0x03,0xFF,Read,ACK
1.550200,7,0x03,0xFF,Read,ACK
1.550200,7,0x03,0xFF,Read,ACK
1.550200,7,0x03,0xFF,Read,ACK
1.550200,7,0x03,0xFF,Read,ACK
1.550200,7,0x03,0xFF,Read,ACK
1.550200,7,0x03,0xFF,Read,ACK
1.550200,7,0x03,0xFF,Read,ACK
1.550200,7,0x03,0xFF,Read,ACK
1.550200,7,0x03,0xFF,Read,ACK
1.550200,7,0x03,0xFF,Read,ACK
1.550200,7,0x03,0xFF,Read,ACK
1.550200,7,0x03,0xFF,Read,ACK
1.550200,7,0x03,0xFF,Read,ACK
1.550200,7,0x03,0xFF,Read,ACK
1.550200,7,0x03,0xFF,Read,ACK
1.550200,7,0x03,0xFF,Read,ACK
1.550200,7,0x03,0xFF,Read,ACK
1.550200,7,0x03,0xFF,Read,ACK
1.550200,7,0x03,0x00,Read,ACK
1.550200,7,0x03,0x00,Read,ACK
1.550200,7,0x03,0x00,Read,ACK
1.550200,7,0x03,0x00,Read,ACK
1.550200,7,0x03,0x00,Read,ACK
1.550200,7,0x03,0x00,Read,ACK
1.550200,7,0x03,0xDF,Read,NAK
1.650000,8,0x02,0xFF,Write,ACK
1.650000,8,0x02,0x09,Write,ACK
1.650000,8,0x02,0x90,Write,ACK
1.650000,8,0x02,0x00,Write,ACK
1.650200,9,0x03,0x02,Read,ACK
1.650200,9,0x03,0x12,Read,ACK
1.650200,9,0x03,0x03,Read,ACK
1.650200,9,0x03,0x02,Read,ACK
1.650200,9,0x03,0x01,Read,ACK
1.650200,9,0x03,0xB0,Read,ACK
1.650200,9,0x03,0xFF,Read,ACK
1.650200,9,0x03,0xFF,Read,ACK
1.650200,9,0x03,0x22,Read,ACK
1.650200,9,0x03,0x08,Read,ACK
1.650200,9,0x03,0x4A,Read,ACK
1.650200,9,0x03,0x01,Read,ACK
1.650200,9,0x03,0x42,Read,ACK
1.650200,9,0x03,0xFF,Read,ACK
1.650200,9,0x03,0xFF,Read,ACK
1.650200,9,0x03,0xFF,Read,ACK
1.650200,9,0x03,0xFF,Read,ACK
1.650200,9,0x03,0xFF,Read,ACK
1.650200,9,0x03,0xFF,Read,ACK
1.650200,9,0x03,0xFF,Read,ACK
1.650200,9,0x03,0xFF,Read,ACK
1.650200,9,0x03,0xFF,Read,ACK
1.650200,9,0x03,0xFF,Read,ACK
1.650200,9,0x03,0xFF,Read,ACK
1.650200,9,0x03,0xFF,Read,ACK
1.650200,9,0x03,0xFF,Read,ACK
1.650200,9,0x03,0xFF,Read,ACK
1.650200,9,0x03,0xFF,Read,ACK
1.650200,9,0x03,0xFF,Read,ACK
1.650200,9,0x03,0xFF,Read,ACK
1.650200,9,0x03,0xFF,Read,ACK
1.650200,9,0x03,0xFF,Read,ACK
1.650200,9,0x03,0xFF,Read,ACK
1.650200,9,0x03,0xFF,Read,ACK
1.650200,9,0x03,0xFF,Read,ACK
1.650200,9,0x03,0xFF,Read,ACK
1.650200,9,0x03,0xFF,Read,ACK
1.650200,9,0x03,0xFF,Read,ACK
1.650200,9,0x03,0xFF,Read,ACK
1.650200,9,0x03,0xFF,Read,ACK
1.650200,9,0x03,0xFF,Read,ACK
1.650200,9,0x03,0xFF,Read,ACK
1.650200,9,0x03,0xFF,Read,ACK
1.650200,9,0x03,0xFF,Read,ACK
1.650200,9,0x03,0xFF,Read,ACK
1.650200,9,0x03,0xFF,Read,ACK
1.650200,9,0x03,0xFF,Read,ACK
1.650200,9,0x03,0xFF,Read,ACK
1.650200,9,0x03,0xFF,Read,ACK
1.650200,9,0x03,0xFF,Read,ACK
1.650200,9,0x03,0xFF,Read,ACK
1.650200,9,0x03,0xFF,Read,ACK
1.650200,9,0x03,0xFF,Read,ACK
1.650200,9,0x03,0xFF,Read,ACK
1.650200,9,0x03,0xFF,Read,ACK
1.650200,9,0x03,0xFF,Read,ACK
1.650200,9,0x03,0xFF,Read,ACK
1.650200,9,0x03,0xFF,Read,ACK
1.650200,9,0x03,0xFF,Read,ACK
1.650200,9,0x03,0xFF,Read,ACK
1.650200,9,0x03,0xFF,Read,ACK
1.650200,9,0x03,0xFF,Read,ACK
1.650200,9,0x03,0xFF,Read,ACK
1.650200,9,0x03,0xFF,Read,ACK
1.650200,9,0x03,0xFF,Read,ACK
1.650200,9,0x03,0xFF,Read,ACK
1.650200,9,0x03,0xFF,Read,ACK
1.650200,9,0x03,0xFF,Read,ACK
1.650200,9,0x03,0xFF,Read,ACK
1.650200,9,0x03,0xFF,Read,ACK
1.650200,9,0x03,0xFF,Read,ACK
1.650200,9,0x03,0xFF,Read,ACK
1.650200,9,0x03,0xFF,Read,ACK
1.650200,9,0x03,0x00,Read,ACK
1.650200,9,0x03,0x00,Read,ACK
1.650200,9,0x03,0x00,Read,ACK
1.650200,9,0x03,0x00,Read,ACK
1.650200,9,0x03,0x00,Read,ACK
1.650200,9,0x03,0x00,Read,ACK
1.650200,9,0x03,0x8C,Read,NAK
1.750000,10,0x02,0xFF,Write,ACK
1.750000,10,0x02,0x09,Write,ACK
1.750000,10,0x02,0x90,Write,ACK
1.750000,10,0x02,0x00,Write,ACK
1.750200,11,0x03,0x02,Read,ACK
1.750200,11,0x03,0x12,Read,ACK
1.750200,11,0x03,0x03,Read,ACK
1.750200,11,0x03,0x6B,Read,ACK
1.750200,11,0x03,0x01,Read,ACK
1.750200,11,0x03,0xE0,Read,ACK
1.750200,11,0x03,0xFF,Read,ACK
1.750200,11,0x03,0xFF,Read,ACK
1.750200,11,0x03,0x22,Read,ACK
1.750200,11,0x03,0x07,Read,ACK
1.750200,11,0x03,0xFC,Read,ACK
1.750200,11,0x03,0x01,Read,ACK
1.750200,11,0x03,0x80,Read,ACK
1.750200,11,0x03,0xFF,Read,ACK
1.750200,11,0x03,0xFF,Read,ACK
1.750200,11,0x03,0xFF,Read,ACK
1.750200,11,0x03,0xFF,Read,ACK
1.750200,11,0x03,0xFF,Read,ACK
1.750200,11,0x03,0xFF,Read,ACK
1.750200,11,0x03,0xFF,Read,ACK
1.750200,11,0x03,0xFF,Read,ACK
1.750200,11,0x03,0xFF,Read,ACK
1.750200,11,0x03,0xFF,Read,ACK
1.750200,11,0x03,0xFF,Read,ACK
1.750200,11,0x03,0xFF,Read,ACK
1.750200,11,0x03,0xFF,Read,ACK
1.750200,11,0x03,0xFF,Read,ACK
1.750200,11,0x03,0xFF,Read,ACK
1.750200,11,0x03,0xFF,Read,ACK
1.750200,11,0x03,0xFF,Read,ACK
1.750200,11,0x03,0xFF,Read,ACK
1.750200,11,0x03,0xFF,Read,ACK
1.750200,11,0x03,0xFF,Read,ACK
1.750200,11,0x03,0xFF,Read,ACK
1.750200,11,0x03,0xFF,Read,ACK
1.750200,11,0x03,0xFF,Read,ACK
1.750200,11,0x03,0xFF,Read,ACK
1.750200,11,0x03,0xFF,Read,ACK
1.750200,11,0x03,0xFF,Read,ACK
1.750200,11,0x03,0xFF,Read,ACK
1.750200,11,0x03,0xFF,Read,ACK
1.750200,11,0x03,0xFF,Read,ACK
1.750200,11,0x03,0xFF,Read,ACK
1.750200,11,0x03,0xFF,Read,ACK
1.750200,11,0x03,0xFF,Read,ACK
1.750200,11,0x03,0xFF,Read,ACK
1.750200,11,0x03,0xFF,Read,ACK
1.750200,11,0x03,0xFF,Read,ACK
1.750200,11,0x03,0xFF,Read,ACK
1.750200,11,0x03,0xFF,Read,ACK
1.750200,11,0x03,0xFF,Read,ACK
1.750200,11,0x03,0xFF,Read,ACK
1.750200,11,0x03,0xFF,Read,ACK
1.750200,11,0x03,0xFF,Read,ACK
1.750200,11,0x03,0xFF,Read,ACK
1.750200,11,0x03,0xFF,Read,ACK
1.750200,11,0x03,0xFF,Read,ACK
1.750200,11,0x03,0xFF,Read,ACK
1.750200,11,0x03,0xFF,Read,ACK
1.750200,11,0x03,0xFF,Read,ACK
1.750200,11,0x03,0xFF,Read,ACK
1.750200,11,0x03,0xFF,Read,ACK
1.750200,11,0x03,0xFF,Read,ACK
1.750200,11,0x03,0xFF,Read,ACK
1.750200,11,0x03,0xFF,Read,ACK
1.750200,11,0x03,0xFF,Read,ACK
1.750200,11,0x03,0xFF,Read,ACK
1.750200,11,0x03,0xFF,Read,ACK
1.750200,11,0x03,0xFF,Read,ACK
1.750200,11,0x03,0xFF,Read,ACK
1.750200,11,0x03,0xFF,Read,ACK
1.750200,11,0x03,0xFF,Read,ACK
1.750200,11,0x03,0xFF,Read,ACK
1.750200,11,0x03,0x00,Read,ACK
1.750200,11,0x03,0x00,Read,ACK
1.750200,11,0x03,0x00,Read,ACK
1.750200,11,0x03,0x00,Read,ACK
1.750200,11,0x03,0x00,Read,ACK
1.750200,11,0x03,0x00,Read,ACK
1.750200,11,0x03,0x0B,Read,NAK
1.850000,12,0x02,0xFF,Write,ACK
1.850000,12,0x02,0x09,Write,ACK
1.850000,12,0x02,0x90,Write,ACK
1.850000,12,0x02,0x00,Write,ACK
1.850200,13,0x03,0x03,Read,ACK
1.850200,13,0x03,0x12,Read,ACK
1.850200,13,0x03,0x03,Read,ACK
1.850200,13,0x03,0xD4,Read,ACK
1.850200,13,0x03,0x02,Read,ACK
1.850200,13,0x03,0x10,Read,ACK
1.850200,13,0x03,0xFF,Read,ACK
1.850200,13,0x03,0xFF,Read,ACK
1.850200,13,0x03,0x22,Read,ACK
1.850200,13,0x03,0x07,Read,ACK
1.850200,13,0x03,0xAE,Read,ACK
1.850200,13,0x03,0x01,Read,ACK
1.850200,13,0x03,0xBE,Read,ACK
1.850200,13,0x03,0xFF,Read,ACK
1.850200,13,0x03,0xFF,Read,ACK
1.850200,13,0x03,0x31,Read,ACK
1.850200,13,0x03,0x04,Read,ACK
1.850200,13,0x03,0x60,Read,ACK
1.850200,13,0x03,0x04,Read,ACK
1.850200,13,0x03,0x38,Read,ACK
1.850200,13,0x03,0xFF,Read,ACK
1.850200,13,0x03,0xFF,Read,ACK
1.850200,13,0x03,0xFF,Read,ACK
1.850200,13,0x03,0xFF,Read,ACK
1.850200,13,0x03,0xFF,Read,ACK
1.850200,13,0x03,0xFF,Read,ACK
1.850200,13,0x03,0xFF,Read,ACK
1.850200,13,0x03,0xFF,Read,ACK
1.850200,13,0x03,0xFF,Read,ACK
1.850200,13,0x03,0xFF,Read,ACK
1.850200,13,0x03,0xFF,Read,ACK
1.850200,13,0x03,0xFF,Read,ACK
1.850200,13,0x03,0xFF,Read,ACK
1.850200,13,0x03,0xFF,Read,ACK
1.850200,13,0x03,0xFF,Read,ACK
1.850200,13,0x03,0xFF,Read,ACK
1.850200,13,0x03,0xFF,Read,ACK
1.850200,13,0x03,0xFF,Read,ACK
1.850200,13,0x03,0xFF,Read,ACK
1.850200,13,0x03,0xFF,Read,ACK
1.850200,13,0x03,0xFF,Read,ACK
1.850200,13,0x03,0xFF,Read,ACK
1.850200,13,0x03,0xFF,Read,ACK
1.850200,13,0x03,0xFF,Read,ACK
1.850200,13,0x03,0xFF,Read,ACK
1.850200,13,0x03,0xFF,Read,ACK
1.850200,13,0x03,0xFF,Read,ACK
1.850200,13,0x03,0xFF,Read,ACK
1.850200,13,0x03,0xFF,Read,ACK
1.850200,13,0x03,0xFF,Read,ACK
1.850200,13,0x03,0xFF,Read,ACK
1.850200,13,0x03,0xFF,Read,ACK
1.850200,13,0x03,0xFF,Read,ACK
1.850200,13,0x03,0xFF,Read,ACK
1.850200,13,0x03,0xFF,Read,ACK
1.850200,13,0x03,0xFF,Read,ACK
1.850200,13,0x03,0xFF,Read,ACK
1.850200,13,0x03,0xFF,Read,ACK
1.850200,13,0x03,0xFF,Read,ACK
1.850200,13,0x03,0xFF,Read,ACK
1.850200,13,0x03,0xFF,Read,ACK
1.850200,13,0x03,0xFF,Read,ACK
1.850200,13,0x03,0xFF,Read,ACK
1.850200,13,0x03,0xFF,Read,ACK
1.850200,13,0x03,0xFF,Read,ACK
1.850200,13,0x03,0xFF,Read,ACK
1.850200,13,0x03,0xFF,Read,ACK
1.850200,13,0x03,0xFF,Read,ACK
1.850200,13,0x03,0xFF,Read,ACK
1.850200,13,0x03,0xFF,Read,ACK
1.850200,13,0x03,0xFF,Read,ACK
1.850200,13,0x03,0xFF,Read,ACK
1.850200,13,0x03,0xFF,Read,ACK
1.850200,13,0x03,0x00,Read,ACK
1.850200,13,0x03,0x00,Read,ACK
1.850200,13,0x03,0x00,Read,ACK
1.850200,13,0x03,0x00,Read,ACK
1.850200,13,0x03,0x00,Read,ACK
1.850200,13,0x03,0x00,Read,ACK
1.850200,13,0x03,0x78,Read,NAK
1.950000,14,0x02,0xFF,Write,ACK
1.950000,14,0x02,0x09,Write,ACK
1.950000,14,0x02,0x90,Write,ACK
1.950000,14,0x02,0x00,Write,ACK
1.950200,15,0x03,0x03,Read,ACK
1.950200,15,0x03,0x12,Read,ACK
1.950200,15,0x03,0x04,Read,ACK
1.950200,15,0x03,0x3D,Read,ACK
1.950200,15,0x03,0x02,Read,ACK
1.950200,15,0x03,0x40,Read,ACK
1.950200,15,0x03,0xFF,Read,ACK
1.950200,15,0x03,0xFF,Read,ACK
1.950200,15,0x03,0x22,Read,ACK
1.950200,15,0x03,0x07,Read,ACK
1.950200,15,0x03,0x60,Read,ACK
1.950200,15,0x03,0x01,Read,ACK
1.950200,15,0x03,0xFC,Read,ACK
1.950200,15,0x03,0xFF,Read,ACK
1.950200,15,0x03,0xFF,Read,ACK
1.950200,15,0x03,0x32,Read,ACK
1.950200,15,0x03,0x04,Read,ACK
1.950200,15,0x03,0xA8,Read,ACK
1.950200,15,0x03,0x03,Read,ACK
1.950200,15,0x03,0xF6,Read,ACK
1.950200,15,0x03,0xFF,Read,ACK
1.950200,15,0x03,0xFF,Read,ACK
1.950200,15,0x03,0xFF,Read,ACK
1.950200,15,0x03,0xFF,Read,ACK
1.950200,15,0x03,0xFF,Read,ACK
1.950200,15,0x03,0xFF,Read,ACK
1.950200,15,0x03,0xFF,Read,ACK
1.950200,15,0x03,0xFF,Read,ACK
1.950200,15,0x03,0xFF,Read,ACK
1.950200,15,0x03,0xFF,Read,ACK
1.950200,15,0x03,0xFF,Read,ACK
1.950200,15,0x03,0xFF,Read,ACK
1.950200,15,0x03,0xFF,Read,ACK
1.950200,15,0x03,0xFF,Read,ACK
1.950200,15,0x03,0xFF,Read,ACK
1.950200,15,0x03,0xFF,Read,ACK
1.950200,15,0x03,0xFF,Read,ACK
1.950200,15,0x03,0xFF,Read,ACK
1.950200,15,0x03,0xFF,Read,ACK
1.950200,15,0x03,0xFF,Read,ACK
1.950200,15,0x03,0xFF,Read,ACK
1.950200,15,0x03,0xFF,Read,ACK
1.950200,15,0x03,0xFF,Read,ACK
1.950200,15,0x03,0xFF,Read,ACK
1.950200,15,0x03,0xFF,Read,ACK
1.950200,15,0x03,0xFF,Read,ACK
1.950200,15,0x03,0xFF,Read,ACK
1.950200,15,0x03,0xFF,Read,ACK
1.950200,15,0x03,0xFF,Read,ACK
1.950200,15,0x03,0xFF,Read,ACK
1.950200,15,0x03,0xFF,Read,ACK
1.950200,15,0x03,0xFF,Read,ACK
1.950200,15,0x03,0xFF,Read,ACK
1.950200,15,0x03,0xFF,Read,ACK
1.950200,15,0x03,0xFF,Read,ACK
1.950200,15,0x03,0xFF,Read,ACK
1.950200,15,0x03,0xFF,Read,ACK
1.950200,15,0x03,0xFF,Read,ACK
1.950200,15,0x03,0xFF,Read,ACK
1.950200,15,0x03,0xFF,Read,ACK
1.950200,15,0x03,0xFF,Read,ACK
1.950200,15,0x03,0xFF,Read,ACK
1.950200,15,0x03,0xFF,Read,ACK
1.950200,15,0x03,0xFF,Read,ACK
1.950200,15,0x03,0xFF,Read,ACK
1.950200,15,0x03,0xFF,Read,ACK
1.950200,15,0x03,0xFF,Read,ACK
1.950200,15,0x03,0xFF,Read,ACK
1.950200,15,0x03,0xFF,Read,ACK
1.950200,15,0x03,0xFF,Read,ACK
1.950200,15,0x03,0xFF,Read,ACK
1.950200,15,0x03,0xFF,Read,ACK
1.950200,15,0x03,0xFF,Read,ACK
1.950200,15,0x03,0x00,Read,ACK
1.950200,15,0x03,0x00,Read,ACK
1.950200,15,0x03,0x00,Read,ACK
1.950200,15,0x03,0x00,Read,ACK
1.950200,15,0x03,0x00,Read,ACK
1.950200,15,0x03,0x00,Read,ACK
1.950200,15,0x03,0x2C,Read,NAK
2.050000,16,0x02,0xFF,Write,ACK
2.050000,16,0x02,0x09,Write,ACK
2.050000,16,0x02,0x90,Write,ACK
2.050000,16,0x02,0x00,Write,ACK
2.050200,17,0x03,0x03,Read,ACK
2.050200,17,0x03,0x12,Read,ACK
2.050200,17,0x03,0x04,Read,ACK
2.050200,17,0x03,0xA6,Read,ACK
2.050200,17,0x03,0x02,Read,ACK
2.050200,17,0x03,0x70,Read,ACK
2.050200,17,0x03,0xFF,Read,ACK
2.050200,17,0x03,0xFF,Read,ACK
2.050200,17,0x03,0x22,Read,ACK
2.050200,17,0x03,0x07,Read,ACK
2.050200,17,0x03,0x12,Read,ACK
2.050200,17,0x03,0x02,Read,ACK
2.050200,17,0x03,0x3A,Read,ACK
2.050200,17,0x03,0xFF,Read,ACK
2.050200,17,0x03,0xFF,Read,ACK
2.050200,17,0x03,0x32,Read,ACK
2.050200,17,0x03,0x04,Read,ACK
2.050200,17,0x03,0xF0,Read,ACK
2.050200,17,0x03,0x03,Read,ACK
2.050200,17,0x03,0xB4,Read,ACK
2.050200,17,0x03,0xFF,Read,ACK
2.050200,17,0x03,0xFF,Read,ACK
2.050200,17,0x03,0xFF,Read,ACK
2.050200,17,0x03,0xFF,Read,ACK
2.050200,17,0x03,0xFF,Read,ACK
2.050200,17,0x03,0xFF,Read,ACK
2.050200,17,0x03,0xFF,Read,ACK
2.050200,17,0x03,0xFF,Read,ACK
2.050200,17,0x03,0xFF,Read,ACK
2.050200,17,0x03,0xFF,Read,ACK
2.050200,17,0x03,0xFF,Read,ACK
2.050200,17,0x03,0xFF,Read,ACK
2.050200,17,0x03,0xFF,Read,ACK
2.050200,17,0x03,0xFF,Read,ACK
2.050200,17,0x03,0xFF,Read,ACK
2.050200,17,0x03,0xFF,Read,ACK
2.050200,17,0x03,0xFF,Read,ACK
2.050200,17,0x03,0xFF,Read,ACK
2.050200,17,0x03,0xFF,Read,ACK
2.050200,17,0x03,0xFF,Read,ACK
2.050200,17,0x03,0xFF,Read,ACK
2.050200,17,0x03,0xFF,Read,ACK
2.050200,17,0x03,0xFF,Read,ACK
2.050200,17,0x03,0xFF,Read,ACK
2.050200,17,0x03,0xFF,Read,ACK
2.050200,17,0x03,0xFF,Read,ACK
2.050200,17,0x03,0xFF,Read,ACK
2.050200,17,0x03,0xFF,Read,ACK
2.050200,17,0x03,0xFF,Read,ACK
2.050200,17,0x03,0xFF,Read,ACK
2.050200,17,0x03,0xFF,Read,ACK
2.050200,17,0x03,0xFF,Read,ACK
2.050200,17,0x03,0xFF,Read,ACK
2.050200,17,0x03,0xFF,Read,ACK
2.050200,17,0x03,0xFF,Read,ACK
2.050200,17,0x03,0xFF,Read,ACK
2.050200,17,0x03,0xFF,Read,ACK
2.050200,17,0x03,0xFF,Read,ACK
2.050200,17,0x03,0xFF,Read,ACK
2.050200,17,0x03,0xFF,Read,ACK
2.050200,17,0x03,0xFF,Read,ACK
2.050200,17,0x03,0xFF,Read,ACK
2.050200,17,0x03,0xFF,Read,ACK
2.050200,17,0x03,0xFF,Read,ACK
2.050200,17,0x03,0xFF,Read,ACK
2.050200,17,0x03,0xFF,Read,ACK
2.050200,17,0x03,0xFF,Read,ACK
2.050200,17,0x03,0xFF,Read,ACK
2.050200,17,0x03,0xFF,Read,ACK
2.050200,17,0x03,0xFF,Read,ACK
2.050200,17,0x03,0xFF,Read,ACK
2.050200,17,0x03,0xFF,Read,ACK
2.050200,17,0x03,0xFF,Read,ACK
2.050200,17,0x03,0x00,Read,ACK
2.050200,17,0x03,0x00,Read,ACK
2.050200,17,0x03,0x00,Read,ACK
2.050200,17,0x03,0x00,Read,ACK
2.050200,17,0x03,0x00,Read,ACK
2.050200,17,0x03,0x00,Read,ACK
2.050200,17,0x03,0x87,Read,NAK
2.150000,18,0x02,0xFF,Write,ACK
2.150000,18,0x02,0x09,Write,ACK
2.150000,18,0x02,0x90,Write,ACK
2.150000,18,0x02,0x00,Write,ACK
2.150200,19,0x03,0x03,Read,ACK
2.150200,19,0x03,0x12,Read,ACK
2.150200,19,0x03,0x05,Read,ACK
2.150200,19,0x03,0x0F,Read,ACK
2.150200,19,0x03,0x02,Read,ACK
2.150200,19,0x03,0xA0,Read,ACK
2.150200,19,0x03,0xFF,Read,ACK
2.150200,19,0x03,0xFF,Read,ACK
2.150200,19,0x03,0x22,Read,ACK
2.150200,19,0x03,0x06,Read,ACK
2.150200,19,0x03,0xC4,Read,ACK
2.150200,19,0x03,0x02,Read,ACK
2.150200,19,0x03,0x78,Read,ACK
2.150200,19,0x03,0xFF,Read,ACK
2.150200,19,0x03,0xFF,Read,ACK
2.150200,19,0x03,0x32,Read,ACK
2.150200,19,0x03,0x05,Read,ACK
2.150200,19,0x03,0x38,Read,ACK
2.150200,19,0x03,0x03,Read,ACK
2.150200,19,0x03,0x72,Read,ACK
2.150200,19,0x03,0xFF,Read,ACK
2.150200,19,0x03,0xFF,Read,ACK
2.150200,19,0x03,0xFF,Read,ACK
2.150200,19,0x03,0xFF,Read,ACK
2.150200,19,0x03,0xFF,Read,ACK
2.150200,19,0x03,0xFF,Read,ACK
2.150200,19,0x03,0xFF,Read,ACK
2.150200,19,0x03,0xFF,Read,ACK
2.150200,19,0x03,0xFF,Read,ACK
2.150200,19,0x03,0xFF,Read,ACK
2.150200,19,0x03,0xFF,Read,ACK
2.150200,19,0x03,0xFF,Read,ACK
2.150200,19,0x03,0xFF,Read,ACK
2.150200,19,0x03,0xFF,Read,ACK
2.150200,19,0x03,0xFF,Read,ACK
2.150200,19,0x03,0xFF,Read,ACK
2.150200,19,0x03,0xFF,Read,ACK
2.150200,19,0x03,0xFF,Read,ACK
2.150200,19,0x03,0xFF,Read,ACK
2.150200,19,0x03,0xFF,Read,ACK
2.150200,19,0x03,0xFF,Read,ACK
2.150200,19,0x03,0xFF,Read,ACK
2.150200,19,0x03,0xFF,Read,ACK
2.150200,19,0x03,0xFF,Read,ACK
2.150200,19,0x03,0xFF,Read,ACK
2.150200,19,0x03,0xFF,Read,ACK
2.150200,19,0x03,0xFF,Read,ACK
2.150200,19,0x03,0xFF,Read,ACK
2.150200,19,0x03,0xFF,Read,ACK
2.150200,19,0x03,0xFF,Read,ACK
2.150200,19,0x03,0xFF,Read,ACK
2.150200,19,0x03,0xFF,Read,ACK
2.150200,19,0x03,0xFF,Read,ACK
2.150200,19,0x03,0xFF,Read,ACK
2.150200,19,0x03,0xFF,Read,ACK
2.150200,19,0x03,0xFF,Read,ACK
2.150200,19,0x03,0xFF,Read,ACK
2.150200,19,0x03,0xFF,Read,ACK
2.150200,19,0x03,0xFF,Read,ACK
2.150200,19,0x03,0xFF,Read,ACK
2.150200,19,0x03,0xFF,Read,ACK
2.150200,19,0x03,0xFF,Read,ACK
2.150200,19,0x03,0xFF,Read,ACK
2.150200,19,0x03,0xFF,Read,ACK
2.150200,19,0x03,0xFF,Read,ACK
2.150200,19,0x03,0xFF,Read,ACK
2.150200,19,0x03,0xFF,Read,ACK
2.150200,19,0x03,0xFF,Read,ACK
2.150200,19,0x03,0xFF,Read,ACK
2.150200,19,0x03,0xFF,Read,ACK
2.150200,19,0x03,0xFF,Read,ACK
2.150200,19,0x03,0xFF,Read,ACK
2.150200,19,0x03,0xFF,Read,ACK
2.150200,19,0x03,0x00,Read,ACK
2.150200,19,0x03,0x00,Read,ACK
2.150200,19,0x03,0x00,Read,ACK
2.150200,19,0x03,0x00,Read,ACK
2.150200,19,0x03,0x00,Read,ACK
2.150200,19,0x03,0x00,Read,ACK
2.150200,19,0x03,0x38,Read,NAK
2.250000,20,0x02,0xFF,Write,ACK
2.250000,20,0x02,0x09,Write,ACK
2.250000,20,0x02,0x90,Write,ACK
2.250000,20,0x02,0x00,Write,ACK
2.250200,21,0x03,0x03,Read,ACK
2.250200,21,0x03,0x12,Read,ACK
2.250200,21,0x03,0x05,Read,ACK
2.250200,21,0x03,0x78,Read,ACK
2.250200,21,0x03,0x02,Read,ACK
2.250200,21,0x03,0xD0,Read,ACK
2.250200,21,0x03,0xFF,Read,ACK
2.250200,21,0x03,0xFF,Read,ACK
2.250200,21,0x03,0x22,Read,ACK
2.250200,21,0x03,0x06,Read,ACK
2.250200,21,0x03,0x76,Read,ACK
2.250200,21,0x03,0x02,Read,ACK
2.250200,21,0x03,0xB6,Read,ACK
2.250200,21,0x03,0xFF,Read,ACK
2.250200,21,0x03,0xFF,Read,ACK
2.250200,21,0x03,0x32,Read,ACK
2.250200,21,0x03,0x05,Read,ACK
2.250200,21,0x03,0x80,Read,ACK
2.250200,21,0x03,0x03,Read,ACK
2.250200,21,0x03,0x30,Read,ACK
2.250200,21,0x03,0xFF,Read,ACK
2.250200,21,0x03,0xFF,Read,ACK
2.250200,21,0x03,0xFF,Read,ACK
2.250200,21,0x03,0xFF,Read,ACK
2.250200,21,0x03,0xFF,Read,ACK
2.250200,21,0x03,0xFF,Read,ACK
2.250200,21,0x03,0xFF,Read,ACK
2.250200,21,0x03,0xFF,Read,ACK
2.250200,21,0x03,0xFF,Read,ACK
2.250200,21,0x03,0xFF,Read,ACK
2.250200,21,0x03,0xFF,Read,ACK
2.250200,21,0x03,0xFF,Read,ACK
2.250200,21,0x03,0xFF,Read,ACK
2.250200,21,0x03,0xFF,Read,ACK
2.250200,21,0x03,0xFF,Read,ACK
2.250200,21,0x03,0xFF,Read,ACK
2.250200,21,0x03,0xFF,Read,ACK
2.250200,21,0x03,0xFF,Read,ACK
2.250200,21,0x03,0xFF,Read,ACK
2.250200,21,0x03,0xFF,Read,ACK
2.250200,21,0x03,0xFF,Read,ACK
2.250200,21,0x03,0xFF,Read,ACK
2.250200,21,0x03,0xFF,Read,ACK
2.250200,21,0x03,0xFF,Read,ACK
2.250200,21,0x03,0xFF,Read,ACK
2.250200,21,0x03,0xFF,Read,ACK
2.250200,21,0x03,0xFF,Read,ACK
2.250200,21,0x03,0xFF,Read,ACK
2.250200,21,0x03,0xFF,Read,ACK
2.250200,21,0x03,0xFF,Read,ACK
2.250200,21,0x03,0xFF,Read,ACK
2.250200,21,0x03,0xFF,Read,ACK
2.250200,21,0x03,0xFF,Read,ACK
2.250200,21,0x03,0xFF,Read,ACK
2.250200,21,0x03,0xFF,Read,ACK
2.250200,21,0x03,0xFF,Read,ACK
2.250200,21,0x03,0xFF,Read,ACK
2.250200,21,0x03,0xFF,Read,ACK
2.250200,21,0x03,0xFF,Read,ACK
2.250200,21,0x03,0xFF,Read,ACK
2.250200,21,0x03,0xFF,Read,ACK
2.250200,21,0x03,0xFF,Read,ACK
2.250200,21,0x03,0xFF,Read,ACK
2.250200,21,0x03,0xFF,Read,ACK
2.250200,21,0x03,0xFF,Read,ACK
2.250200,21,0x03,0xFF,Read,ACK
2.250200,21,0x03,0xFF,Read,ACK
2.250200,21,0x03,0xFF,Read,ACK
2.250200,21,0x03,0xFF,Read,ACK
2.250200,21,0x03,0xFF,Read,ACK
2.250200,21,0x03,0xFF,Read,ACK
2.250200,21,0x03,0xFF,Read,ACK
2.250200,21,0x03,0xFF,Read,ACK
2.250200,21,0x03,0x00,Read,ACK
2.250200,21,0x03,0x00,Read,ACK
2.250200,21,0x03,0x00,Read,ACK
2.250200,21,0x03,0x00,Read,ACK
2.250200,21,0x03,0x00,Read,ACK
2.250200,21,0x03,0x00,Read,ACK
2.250200,21,0x03,0xBE,Read,NAK
2.350000,22,0x02,0xFF,Write,ACK
2.350000,22,0x02,0x09,Write,ACK
2.350000,22,0x02,0x90,Write,ACK
2.350000,22,0x02,0x00,Write,ACK
2.350200,23,0x03,0x03,Read,ACK
2.350200,23,0x03,0x12,Read,ACK
2.350200,23,0x03,0x05,Read,ACK
2.350200,23,0x03,0xE1,Read,ACK
2.350200,23,0x03,0x03,Read,ACK
2.350200,23,0x03,0x00,Read,ACK
2.350200,23,0x03,0xFF,Read,ACK
2.350200,23,0x03,0xFF,Read,ACK
2.350200,23,0x03,0x22,Read,ACK
2.350200,23,0x03,0x06,Read,ACK
2.350200,23,0x03,0x28,Read,ACK
2.350200,23,0x03,0x02,Read,ACK
2.350200,23,0x03,0xF4,Read,ACK
2.350200,23,0x03,0xFF,Read,ACK
2.350200,23,0x03,0xFF,Read,ACK
2.350200,23,0x03,0x32,Read,ACK
2.350200,23,0x03,0x05,Read,ACK
2.350200,23,0x03,0xC8,Read,ACK
2.350200,23,0x03,0x02,Read,ACK
2.350200,23,0x03,0xEE,Read,ACK
2.350200,23,0x03,0xFF,Read,ACK
2.350200,23,0x03,0xFF,Read,ACK
2.350200,23,0x03,0xFF,Read,ACK
2.350200,23,0x03,0xFF,Read,ACK
2.350200,23,0x03,0xFF,Read,ACK
2.350200,23,0x03,0xFF,Read,ACK
2.350200,23,0x03,0xFF,Read,ACK
2.350200,23,0x03,0xFF,Read,ACK
2.350200,23,0x03,0xFF,Read,ACK
2.350200,23,0x03,0xFF,Read,ACK
2.350200,23,0x03,0xFF,Read,ACK
2.350200,23,0x03,0xFF,Read,ACK
2.350200,23,0x03,0xFF,Read,ACK
2.350200,23,0x03,0xFF,Read,ACK
2.350200,23,0x03,0xFF,Read,ACK
2.350200,23,0x03,0xFF,Read,ACK
2.350200,23,0x03,0xFF,Read,ACK
2.350200,23,0x03,0xFF,Read,ACK
2.350200,23,0x03,0xFF,Read,ACK
2.350200,23,0x03,0xFF,Read,ACK
2.350200,23,0x03,0xFF,Read,ACK
2.350200,23,0x03,0xFF,Read,ACK
2.350200,23,0x03,0xFF,Read,ACK
2.350200,23,0x03,0xFF,Read,ACK
2.350200,23,0x03,0xFF,Read,ACK
2.350200,23,0x03,0xFF,Read,ACK
2.350200,23,0x03,0xFF,Read,ACK
2.350200,23,0x03,0xFF,Read,ACK
2.350200,23,0x03,0xFF,Read,ACK
2.350200,23,0x03,0xFF,Read,ACK
2.350200,23,0x03,0xFF,Read,ACK
2.350200,23,0x03,0xFF,Read,ACK
2.350200,23,0x03,0xFF,Read,ACK
2.350200,23,0x03,0xFF,Read,ACK
2.350200,23,0x03,0xFF,Read,ACK
2.350200,23,0x03,0xFF,Read,ACK
2.350200,23,0x03,0xFF,Read,ACK
2.350200,23,0x03,0xFF,Read,ACK
2.350200,23,0x03,0xFF,Read,ACK
2.350200,23,0x03,0xFF,Read,ACK
2.350200,23,0x03,0xFF,Read,ACK
2.350200,23,0x03,0xFF,Read,ACK
2.350200,23,0x03,0xFF,Read,ACK
2.350200,23,0x03,0xFF,Read,ACK
2.350200,23,0x03,0xFF,Read,ACK
2.350200,23,0x03,0xFF,Read,ACK
2.350200,23,0x03,0xFF,Read,ACK
2.350200,23,0x03,0xFF,Read,ACK
2.350200,23,0x03,0xFF,Read,ACK
2.350200,23,0x03,0xFF,Read,ACK
2.350200,23,0x03,0xFF,Read,ACK
2.350200,23,0x03,0xFF,Read,ACK
2.350200,23,0x03,0xFF,Read,ACK
2.350200,23,0x03,0x00,Read,ACK
2.350200,23,0x03,0x00,Read,ACK
2.350200,23,0x03,0x00,Read,ACK
2.350200,23,0x03,0x00,Read,ACK
2.350200,23,0x03,0x00,Read,ACK
2.350200,23,0x03,0x00,Read,ACK
2.350200,23,0x03,0xF7,Read,NAK
2.450000,24,0x02,0xFF,Write,ACK
2.450000,24,0x02,0x09,Write,ACK
2.450000,24,0x02,0x90,Write,ACK
2.450000,24,0x02,0x00,Write,ACK
2.450200,25,0x03,0x03,Read,ACK
2.450200,25,0x03,0x12,Read,ACK
2.450200,25,0x03,0x06,Read,ACK
2.450200,25,0x03,0x4A,Read,ACK
2.450200,25,0x03,0x03,Read,ACK
2.450200,25,0x03,0x30,Read,ACK
2.450200,25,0x03,0xFF,Read,ACK
2.450200,25,0x03,0xFF,Read,ACK
2.450200,25,0x03,0x22,Read,ACK
2.450200,25,0x03,0x05,Read,ACK
2.450200,25,0x03,0xDA,Read,ACK
2.450200,25,0x03,0x03,Read,ACK
2.450200,25,0x03,0x32,Read,ACK
2.450200,25,0x03,0xFF,Read,ACK
2.450200,25,0x03,0xFF,Read,ACK
2.450200,25,0x03,0x32,Read,ACK
2.450200,25,0x03,0x06,Read,ACK
2.450200,25,0x03,0x10,Read,ACK
2.450200,25,0x03,0x02,Read,ACK
2.450200,25,0x03,0xAC,Read,ACK
2.450200,25,0x03,0xFF,Read,ACK
2.450200,25,0x03,0xFF,Read,ACK
2.450200,25,0x03,0xFF,Read,ACK
2.450200,25,0x03,0xFF,Read,ACK
2.450200,25,0x03,0xFF,Read,ACK
2.450200,25,0x03,0xFF,Read,ACK
2.450200,25,0x03,0xFF,Read,ACK
2.450200,25,0x03,0xFF,Read,ACK
2.450200,25,0x03,0xFF,Read,ACK
2.450200,25,0x03,0xFF,Read,ACK
2.450200,25,0x03,0xFF,Read,ACK
2.450200,25,0x03,0xFF,Read,ACK
2.450200,25,0x03,0xFF,Read,ACK
2.450200,25,0x03,0xFF,Read,ACK
2.450200,25,0x03,0xFF,Read,ACK
2.450200,25,0x03,0xFF,Read,ACK
2.450200,25,0x03,0xFF,Read,ACK
2.450200,25,0x03,0xFF,Read,ACK
2.450200,25,0x03,0xFF,Read,ACK
2.450200,25,0x03,0xFF,Read,ACK
2.450200,25,0x03,0xFF,Read,ACK
2.450200,25,0x03,0xFF,Read,ACK
2.450200,25,0x03,0xFF,Read,ACK
2.450200,25,0x03,0xFF,Read,ACK
2.450200,25,0x03,0xFF,Read,ACK
2.450200,25,0x03,0xFF,Read,ACK
2.450200,25,0x03,0xFF,Read,ACK
2.450200,25,0x03,0xFF,Read,ACK
2.450200,25,0x03,0xFF,Read,ACK
2.450200,25,0x03,0xFF,Read,ACK
2.450200,25,0x03,0xFF,Read,ACK
2.450200,25,0x03,0xFF,Read,ACK
2.450200,25,0x03,0xFF,Read,ACK
2.450200,25,0x03,0xFF,Read,ACK
2.450200,25,0x03,0xFF,Read,ACK
2.450200,25,0x03,0xFF,Read,ACK
2.450200,25,0x03,0xFF,Read,ACK
2.450200,25,0x03,0xFF,Read,ACK
2.450200,25,0x03,0xFF,Read,ACK
2.450200,25,0x03,0xFF,Read,ACK
2.450200,25,0x03,0xFF,Read,ACK
2.450200,25,0x03,0xFF,Read,ACK
2.450200,25,0x03,0xFF,Read,ACK
2.450200,25,0x03,0xFF,Read,ACK
2.450200,25,0x03,0xFF,Read,ACK
2.450200,25,0x03,0xFF,Read,ACK
2.450200,25,0x03,0xFF,Read,ACK
2.450200,25,0x03,0xFF,Read,ACK
2.450200,25,0x03,0xFF,Read,ACK
2.450200,25,0x03,0xFF,Read,ACK
2.450200,25,0x03,0xFF,Read,ACK
2.450200,25,0x03,0xFF,Read,ACK
2.450200,25,0x03,0xFF,Read,ACK
2.450200,25,0x03,0x00,Read,ACK
2.450200,25,0x03,0x00,Read,ACK
2.450200,25,0x03,0x00,Read,ACK
2.450200,25,0x03,0x00,Read,ACK
2.450200,25,0x03,0x00,Read,ACK
2.450200,25,0x03,0x00,Read,ACK
2.450200,25,0x03,0x92,Read,NAK
2.550000,26,0x02,0xFF,Write,ACK
2.550000,26,0x02,0x09,Write,ACK
2.550000,26,0x02,0x90,Write,ACK
2.550000,26,0x02,0x00,Write,ACK
2.550200,27,0x03,0x02,Read,ACK
2.550200,27,0x03,0x13,Read,ACK
2.550200,27,0x03,0x06,Read,ACK
2.550200,27,0x03,0x4A,Read,ACK
2.550200,27,0x03,0x03,Read,ACK
2.550200,27,0x03,0x30,Read,ACK
2.550200,27,0x03,0xFF,Read,ACK
2.550200,27,0x03,0xFF,Read,ACK
2.550200,27,0x03,0x22,Read,ACK
2.550200,27,0x03,0x05,Read,ACK
2.550200,27,0x03,0x8C,Read,ACK
2.550200,27,0x03,0x03,Read,ACK
2.550200,27,0x03,0x70,Read,ACK
2.550200,27,0x03,0xFF,Read,ACK
2.550200,27,0x03,0xFF,Read,ACK
2.550200,27,0x03,0x32,Read,ACK
2.550200,27,0x03,0x06,Read,ACK
2.550200,27,0x03,0x58,Read,ACK
2.550200,27,0x03,0x02,Read,ACK
2.550200,27,0x03,0x6A,Read,ACK
2.550200,27,0x03,0xFF,Read,ACK
2.550200,27,0x03,0xFF,Read,ACK
2.550200,27,0x03,0xFF,Read,ACK
2.550200,27,0x03,0xFF,Read,ACK
2.550200,27,0x03,0xFF,Read,ACK
2.550200,27,0x03,0xFF,Read,ACK
2.550200,27,0x03,0xFF,Read,ACK
2.550200,27,0x03,0xFF,Read,ACK
2.550200,27,0x03,0xFF,Read,ACK
2.550200,27,0x03,0xFF,Read,ACK
2.550200,27,0x03,0xFF,Read,ACK
2.550200,27,0x03,0xFF,Read,ACK
2.550200,27,0x03,0xFF,Read,ACK
2.550200,27,0x03,0xFF,Read,ACK
2.550200,27,0x03,0xFF,Read,ACK
2.550200,27,0x03,0xFF,Read,ACK
2.550200,27,0x03,0xFF,Read,ACK
2.550200,27,0x03,0xFF,Read,ACK
2.550200,27,0x03,0xFF,Read,ACK
2.550200,27,0x03,0xFF,Read,ACK
2.550200,27,0x03,0xFF,Read,ACK
2.550200,27,0x03,0xFF,Read,ACK
2.550200,27,0x03,0xFF,Read,ACK
2.550200,27,0x03,0xFF,Read,ACK
2.550200,27,0x03,0xFF,Read,ACK
2.550200,27,0x03,0xFF,Read,ACK
2.550200,27,0x03,0xFF,Read,ACK
2.550200,27,0x03,0xFF,Read,ACK
2.550200,27,0x03,0xFF,Read,ACK
2.550200,27,0x03,0xFF,Read,ACK
2.550200,27,0x03,0xFF,Read,ACK
2.550200,27,0x03,0xFF,Read,ACK
2.550200,27,0x03,0xFF,Read,ACK
2.550200,27,0x03,0xFF,Read,ACK
2.550200,27,0x03,0xFF,Read,ACK
2.550200,27,0x03,0xFF,Read,ACK
2.550200,27,0x03,0xFF,Read,ACK
2.550200,27,0x03,0xFF,Read,ACK
2.550200,27,0x03,0xFF,Read,ACK
2.550200,27,0x03,0xFF,Read,ACK
2.550200,27,0x03,0xFF,Read,ACK
2.550200,27,0x03,0xFF,Read,ACK
2.550200,27,0x03,0xFF,Read,ACK
2.550200,27,0x03,0xFF,Read,ACK
2.550200,27,0x03,0xFF,Read,ACK
2.550200,27,0x03,0xFF,Read,ACK
2.550200,27,0x03,0xFF,Read,ACK
2.550200,27,0x03,0xFF,Read,ACK
2.550200,27,0x03,0xFF,Read,ACK
2.550200,27,0x03,0xFF,Read,ACK
2.550200,27,0x03,0xFF,Read,ACK
2.550200,27,0x03,0xFF,Read,ACK
2.550200,27,0x03,0xFF,Read,ACK
2.550200,27,0x03,0x00,Read,ACK
2.550200,27,0x03,0x00,Read,ACK
2.550200,27,0x03,0x00,Read,ACK
2.550200,27,0x03,0x00,Read,ACK
2.550200,27,0x03,0x00,Read,ACK
2.550200,27,0x03,0x00,Read,ACK
2.550200,27,0x03,0x32,Read,NAK
2.650000,28,0x02,0xFF,Write,ACK
2.650000,28,0x02,0x09,Write,ACK
2.650000,28,0x02,0x90,Write,ACK
2.650000,28,0x02,0x00,Write,ACK
2.650200,29,0x03,0x02,Read,ACK
2.650200,29,0x03,0x22,Read,ACK
2.650200,29,0x03,0x05,Read,ACK
2.650200,29,0x03,0x3E,Read,ACK
2.650200,29,0x03,0x03,Read,ACK
2.650200,29,0x03,0xAE,Read,ACK
2.650200,29,0x03,0xFF,Read,ACK
2.650200,29,0x03,0xFF,Read,ACK
2.650200,29,0x03,0x32,Read,ACK
2.650200,29,0x03,0x06,Read,ACK
2.650200,29,0x03,0xA0,Read,ACK
2.650200,29,0x03,0x02,Read,ACK
2.650200,29,0x03,0x28,Read,ACK
2.650200,29,0x03,0xFF,Read,ACK
2.650200,29,0x03,0xFF,Read,ACK
2.650200,29,0x03,0xFF,Read,ACK
2.650200,29,0x03,0xFF,Read,ACK
2.650200,29,0x03,0xFF,Read,ACK
2.650200,29,0x03,0xFF,Read,ACK
2.650200,29,0x03,0xFF,Read,ACK
2.650200,29,0x03,0xFF,Read,ACK
2.650200,29,0x03,0xFF,Read,ACK
2.650200,29,0x03,0xFF,Read,ACK
2.650200,29,0x03,0xFF,Read,ACK
2.650200,29,0x03,0xFF,Read,ACK
2.650200,29,0x03,0xFF,Read,ACK
2.650200,29,0x03,0xFF,Read,ACK
2.650200,29,0x03,0xFF,Read,ACK
2.650200,29,0x03,0xFF,Read,ACK
2.650200,29,0x03,0xFF,Read,ACK
2.650200,29,0x03,0xFF,Read,ACK
2.650200,29,0x03,0xFF,Read,ACK
2.650200,29,0x03,0xFF,Read,ACK
2.650200,29,0x03,0xFF,Read,ACK
2.650200,29,0x03,0xFF,Read,ACK
2.650200,29,0x03,0xFF,Read,ACK
2.650200,29,0x03,0xFF,Read,ACK
2.650200,29,0x03,0xFF,Read,ACK
2.650200,29,0x03,0xFF,Read,ACK
2.650200,29,0x03,0xFF,Read,ACK
2.650200,29,0x03,0xFF,Read,ACK
2.650200,29,0x03,0xFF,Read,ACK
2.650200,29,0x03,0xFF,Read,ACK
2.650200,29,0x03,0xFF,Read,ACK
2.650200,29,0x03,0xFF,Read,ACK
2.650200,29,0x03,0xFF,Read,ACK
2.650200,29,0x03,0xFF,Read,ACK
2.650200,29,0x03,0xFF,Read,ACK
2.650200,29,0x03,0xFF,Read,ACK
2.650200,29,0x03,0xFF,Read,ACK
2.650200,29,0x03,0xFF,Read,ACK
2.650200,29,0x03,0xFF,Read,ACK
2.650200,29,0x03,0xFF,Read,ACK
2.650200,29,0x03,0xFF,Read,ACK
2.650200,29,0x03,0xFF,Read,ACK
2.650200,29,0x03,0xFF,Read,ACK
2.650200,29,0x03,0xFF,Read,ACK
2.650200,29,0x03,0xFF,Read,ACK
2.650200,29,0x03,0xFF,Read,ACK
2.650200,29,0x03,0xFF,Read,ACK
2.650200,29,0x03,0xFF,Read,ACK
2.650200,29,0x03,0xFF,Read,ACK
2.650200,29,0x03,0xFF,Read,ACK
2.650200,29,0x03,0xFF,Read,ACK
2.650200,29,0x03,0xFF,Read,ACK
2.650200,29,0x03,0xFF,Read,ACK
2.650200,29,0x03,0xFF,Read,ACK
2.650200,29,0x03,0xFF,Read,ACK
2.650200,29,0x03,0xFF,Read,ACK
2.650200,29,0x03,0xFF,Read,ACK
2.650200,29,0x03,0xFF,Read,ACK
2.650200,29,0x03,0xFF,Read,ACK
2.650200,29,0x03,0xFF,Read,ACK
2.650200,29,0x03,0x00,Read,ACK
2.650200,29,0x03,0x00,Read,ACK
2.650200,29,0x03,0x00,Read,ACK
2.650200,29,0x03,0x00,Read,ACK
2.650200,29,0x03,0x00,Read,ACK
2.650200,29,0x03,0x00,Read,ACK
2.650200,29,0x03,0x8F,Read,NAK
2.750000,30,0x02,0xFF,Write,ACK
2.750000,30,0x02,0x09,Write,ACK
2.750000,30,0x02,0x90,Write,ACK
2.750000,30,0x02,0x00,Write,ACK
2.750200,31,0x03,0x01,Read,ACK
2.750200,31,0x03,0x23,Read,ACK
2.750200,31,0x03,0x05,Read,ACK
2.750200,31,0x03,0x3E,Read,ACK
2.750200,31,0x03,0x03,Read,ACK
2.750200,31,0x03,0xAE,Read,ACK
2.750200,31,0x03,0xFF,Read,ACK
2.750200,31,0x03,0xFF,Read,ACK
2.750200,31,0x03,0x32,Read,ACK
2.750200,31,0x03,0x06,Read,ACK
2.750200,31,0x03,0xE8,Read,ACK
2.750200,31,0x03,0x01,Read,ACK
2.750200,31,0x03,0xE6,Read,ACK
2.750200,31,0x03,0xFF,Read,ACK
2.750200,31,0x03,0xFF,Read,ACK
2.750200,31,0x03,0xFF,Read,ACK
2.750200,31,0x03,0xFF,Read,ACK
2.750200,31,0x03,0xFF,Read,ACK
2.750200,31,0x03,0xFF,Read,ACK
2.750200,31,0x03,0xFF,Read,ACK
2.750200,31,0x03,0xFF,Read,ACK
2.750200,31,0x03,0xFF,Read,ACK
2.750200,31,0x03,0xFF,Read,ACK
2.750200,31,0x03,0xFF,Read,ACK
2.750200,31,0x03,0xFF,Read,ACK
2.750200,31,0x03,0xFF,Read,ACK
2.750200,31,0x03,0xFF,Read,ACK
2.750200,31,0x03,0xFF,Read,ACK
2.750200,31,0x03,0xFF,Read,ACK
2.750200,31,0x03,0xFF,Read,ACK
2.750200,31,0x03,0xFF,Read,ACK
2.750200,31,0x03,0xFF,Read,ACK
2.750200,31,0x03,0xFF,Read,ACK
2.750200,31,0x03,0xFF,Read,ACK
2.750200,31,0x03,0xFF,Read,ACK
2.750200,31,0x03,0xFF,Read,ACK
2.750200,31,0x03,0xFF,Read,ACK
2.750200,31,0x03,0xFF,Read,ACK
2.750200,31,0x03,0xFF,Read,ACK
2.750200,31,0x03,0xFF,Read,ACK
2.750200,31,0x03,0xFF,Read,ACK
2.750200,31,0x03,0xFF,Read,ACK
2.750200,31,0x03,0xFF,Read,ACK
2.750200,31,0x03,0xFF,Read,ACK
2.750200,31,0x03,0xFF,Read,ACK
2.750200,31,0x03,0xFF,Read,ACK
2.750200,31,0x03,0xFF,Read,ACK
2.750200,31,0x03,0xFF,Read,ACK
2.750200,31,0x03,0xFF,Read,ACK
2.750200,31,0x03,0xFF,Read,ACK
2.750200,31,0x03,0xFF,Read,ACK
2.750200,31,0x03,0xFF,Read,ACK
2.750200,31,0x03,0xFF,Read,ACK
2.750200,31,0x03,0xFF,Read,ACK
2.750200,31,0x03,0xFF,Read,ACK
2.750200,31,0x03,0xFF,Read,ACK
2.750200,31,0x03,0xFF,Read,ACK
2.750200,31,0x03,0xFF,Read,ACK
2.750200,31,0x03,0xFF,Read,ACK
2.750200,31,0x03,0xFF,Read,ACK
2.750200,31,0x03,0xFF,Read,ACK
2.750200,31,0x03,0xFF,Read,ACK
2.750200,31,0x03,0xFF,Read,ACK
2.750200,31,0x03,0xFF,Read,ACK
2.750200,31,0x03,0xFF,Read,ACK
2.750200,31,0x03,0xFF,Read,ACK
2.750200,31,0x03,0xFF,Read,ACK
2.750200,31,0x03,0xFF,Read,ACK
2.750200,31,0x03,0xFF,Read,ACK
2.750200,31,0x03,0xFF,Read,ACK
2.750200,31,0x03,0xFF,Read,ACK
2.750200,31,0x03,0xFF,Read,ACK
2.750200,31,0x03,0xFF,Read,ACK
2.750200,31,0x03,0x00,Read,ACK
2.750200,31,0x03,0x00,Read,ACK
2.750200,31,0x03,0x00,Read,ACK
2.750200,31,0x03,0x00,Read,ACK
2.750200,31,0x03,0x00,Read,ACK
2.750200,31,0x03,0x00,Read,ACK
2.750200,31,0x03,0x53,Read,NAK
2.850000,32,0x02,0xFF,Write,ACK
2.850000,32,0x02,0x09,Write,ACK
2.850000,32,0x02,0x90,Write,ACK
2.850000,32,0x02,0x00,Write,ACK
2.850200,33,0x03,0x01,Read,ACK
2.850200,33,0x03,0x32,Read,ACK
2.850200,33,0x03,0x07,Read,ACK
2.850200,33,0x03,0x30,Read,ACK
2.850200,33,0x03,0x01,Read,ACK
2.850200,33,0x03,0xA4,Read,ACK
2.850200,33,0x03,0xFF,Read,ACK
2.850200,33,0x03,0xFF,Read,ACK
2.850200,33,0x03,0xFF,Read,ACK
2.850200,33,0x03,0xFF,Read,ACK
2.850200,33,0x03,0xFF,Read,ACK
2.850200,33,0x03,0xFF,Read,ACK
2.850200,33,0x03,0xFF,Read,ACK
2.850200,33,0x03,0xFF,Read,ACK
2.850200,33,0x03,0xFF,Read,ACK
2.850200,33,0x03,0xFF,Read,ACK
2.850200,33,0x03,0xFF,Read,ACK
2.850200,33,0x03,0xFF,Read,ACK
2.850200,33,0x03,0xFF,Read,ACK
2.850200,33,0x03,0xFF,Read,ACK
2.850200,33,0x03,0xFF,Read,ACK
2.850200,33,0x03,0xFF,Read,ACK
2.850200,33,0x03,0xFF,Read,ACK
2.850200,33,0x03,0xFF,Read,ACK
2.850200,33,0x03,0xFF,Read,ACK
2.850200,33,0x03,0xFF,Read,ACK
2.850200,33,0x03,0xFF,Read,ACK
2.850200,33,0x03,0xFF,Read,ACK
2.850200,33,0x03,0xFF,Read,ACK
2.850200,33,0x03,0xFF,Read,ACK
2.850200,33,0x03,0xFF,Read,ACK
2.850200,33,0x03,0xFF,Read,ACK
2.850200,33,0x03,0xFF,Read,ACK
2.850200,33,0x03,0xFF,Read,ACK
2.850200,33,0x03,0xFF,Read,ACK
2.850200,33,0x03,0xFF,Read,ACK
2.850200,33,0x03,0xFF,Read,ACK
2.850200,33,0x03,0xFF,Read,ACK
2.850200,33,0x03,0xFF,Read,ACK
2.850200,33,0x03,0xFF,Read,ACK
2.850200,33,0x03,0xFF,Read,ACK
2.850200,33,0x03,0xFF,Read,ACK
2.850200,33,0x03,0xFF,Read,ACK
2.850200,33,0x03,0xFF,Read,ACK
2.850200,33,0x03,0xFF,Read,ACK
2.850200,33,0x03,0xFF,Read,ACK
2.850200,33,0x03,0xFF,Read,ACK
2.850200,33,0x03,0xFF,Read,ACK
2.850200,33,0x03,0xFF,Read,ACK
2.850200,33,0x03,0xFF,Read,ACK
2.850200,33,0x03,0xFF,Read,ACK
2.850200,33,0x03,0xFF,Read,ACK
2.850200,33,0x03,0xFF,Read,ACK
2.850200,33,0x03,0xFF,Read,ACK
2.850200,33,0x03,0xFF,Read,ACK
2.850200,33,0x03,0xFF,Read,ACK
2.850200,33,0x03,0xFF,Read,ACK
2.850200,33,0x03,0xFF,Read,ACK
2.850200,33,0x03,0xFF,Read,ACK
2.850200,33,0x03,0xFF,Read,ACK
2.850200,33,0x03,0xFF,Read,ACK
2.850200,33,0x03,0xFF,Read,ACK
2.850200,33,0x03,0xFF,Read,ACK
2.850200,33,0x03,0xFF,Read,ACK
2.850200,33,0x03,0xFF,Read,ACK
2.850200,33,0x03,0xFF,Read,ACK
2.850200,33,0x03,0xFF,Read,ACK
2.850200,33,0x03,0xFF,Read,ACK
2.850200,33,0x03,0xFF,Read,ACK
2.850200,33,0x03,0xFF,Read,ACK
2.850200,33,0x03,0xFF,Read,ACK
2.850200,33,0x03,0xFF,Read,ACK
2.850200,33,0x03,0xFF,Read,ACK
2.850200,33,0x03,0x00,Read,ACK
2.850200,33,0x03,0x00,Read,ACK
2.850200,33,0x03,0x00,Read,ACK
2.850200,33,0x03,0x00,Read,ACK
2.850200,33,0x03,0x00,Read,ACK
2.850200,33,0x03,0x00,Read,ACK
2.850200,33,0x03,0xD4,Read,NAK
2.950000,34,0x02,0xFF,Write,ACK
2.950000,34,0x02,0x09,Write,ACK
2.950000,34,0x02,0x90,Write,ACK
2.950000,34,0x02,0x00,Write,ACK
2.950200,35,0x03,0x00,Read,ACK
2.950200,35,0x03,0x33,Read,ACK
2.950200,35,0x03,0x07,Read,ACK
2.950200,35,0x03,0x30,Read,ACK
2.950200,35,0x03,0x01,Read,ACK
2.950200,35,0x03,0xA4,Read,ACK
2.950200,35,0x03,0xFF,Read,ACK
2.950200,35,0x03,0xFF,Read,ACK
2.950200,35,0x03,0xFF,Read,ACK
2.950200,35,0x03,0xFF,Read,ACK
2.950200,35,0x03,0xFF,Read,ACK
2.950200,35,0x03,0xFF,Read,ACK
2.950200,35,0x03,0xFF,Read,ACK
2.950200,35,0x03,0xFF,Read,ACK
2.950200,35,0x03,0xFF,Read,ACK
2.950200,35,0x03,0xFF,Read,ACK
2.950200,35,0x03,0xFF,Read,ACK
2.950200,35,0x03,0xFF,Read,ACK
2.950200,35,0x03,0xFF,Read,ACK
2.950200,35,0x03,0xFF,Read,ACK
2.950200,35,0x03,0xFF,Read,ACK
2.950200,35,0x03,0xFF,Read,ACK
2.950200,35,0x03,0xFF,Read,ACK
2.950200,35,0x03,0xFF,Read,ACK
2.950200,35,0x03,0xFF,Read,ACK
2.950200,35,0x03,0xFF,Read,ACK
2.950200,35,0x03,0xFF,Read,ACK
2.950200,35,0x03,0xFF,Read,ACK
2.950200,35,0x03,0xFF,Read,ACK
2.950200,35,0x03,0xFF,Read,ACK
2.950200,35,0x03,0xFF,Read,ACK
2.950200,35,0x03,0xFF,Read,ACK
2.950200,35,0x03,0xFF,Read,ACK
2.950200,35,0x03,0xFF,Read,ACK
2.950200,35,0x03,0xFF,Read,ACK
2.950200,35,0x03,0xFF,Read,ACK
2.950200,35,0x03,0xFF,Read,ACK
2.950200,35,0x03,0xFF,Read,ACK
2.950200,35,0x03,0xFF,Read,ACK
2.950200,35,0x03,0xFF,Read,ACK
2.950200,35,0x03,0xFF,Read,ACK
2.950200,35,0x03,0xFF,Read,ACK
2.950200,35,0x03,0xFF,Read,ACK
2.950200,35,0x03,0xFF,Read,ACK
2.950200,35,0x03,0xFF,Read,ACK
2.950200,35,0x03,0xFF,Read,ACK
2.950200,35,0x03,0xFF,Read,ACK
2.950200,35,0x03,0xFF,Read,ACK
2.950200,35,0x03,0xFF,Read,ACK
2.950200,35,0x03,0xFF,Read,ACK
2.950200,35,0x03,0xFF,Read,ACK
2.950200,35,0x03,0xFF,Read,ACK
2.950200,35,0x03,0xFF,Read,ACK
2.950200,35,0x03,0xFF,Read,ACK
2.950200,35,0x03,0xFF,Read,ACK
2.950200,35,0x03,0xFF,Read,ACK
2.950200,35,0x03,0xFF,Read,ACK
2.950200,35,0x03,0xFF,Read,ACK
2.950200,35,0x03,0xFF,Read,ACK
2.950200,35,0x03,0xFF,Read,ACK
2.950200,35,0x03,0xFF,Read,ACK
2.950200,35,0x03,0xFF,Read,ACK
2.950200,35,0x03,0xFF,Read,ACK
2.950200,35,0x03,0xFF,Read,ACK
2.950200,35,0x03,0xFF,Read,ACK
2.950200,35,0x03,0xFF,Read,ACK
2.950200,35,0x03,0xFF,Read,ACK
2.950200,35,0x03,0xFF,Read,ACK
2.950200,35,0x03,0xFF,Read,ACK
2.950200,35,0x03,0xFF,Read,ACK
2.950200,35,0x03,0xFF,Read,ACK
2.950200,35,0x03,0xFF,Read,ACK
2.950200,35,0x03,0xFF,Read,ACK
2.950200,35,0x03,0x00,Read,ACK
2.950200,35,0x03,0x00,Read,ACK
2.950200,35,0x03,0x00,Read,ACK
2.950200,35,0x03,0x00,Read,ACK
2.950200,35,0x03,0x00,Read,ACK
2.950200,35,0x03,0x00,Read,ACK
2.950200,35,0x03,0x06,Read,NAK
3.050000,36,0x02,0xFF,Write,ACK
3.050000,36,0x02,0x09,Write,ACK
3.050000,36,0x02,0x90,Write,ACK
3.050000,36,0x02,0x00,Write,ACK
3.050200,37,0x03,0x00,Read,ACK
3.050200,37,0x03,0xFF,Read,ACK
3.050200,37,0x03,0xFF,Read,ACK
3.050200,37,0x03,0xFF,Read,ACK
3.050200,37,0x03,0xFF,Read,ACK
3.050200,37,0x03,0xFF,Read,ACK
3.050200,37,0x03,0xFF,Read,ACK
3.050200,37,0x03,0xFF,Read,ACK
3.050200,37,0x03,0xFF,Read,ACK
3.050200,37,0x03,0xFF,Read,ACK
3.050200,37,0x03,0xFF,Read,ACK
3.050200,37,0x03,0xFF,Read,ACK
3.050200,37,0x03,0xFF,Read,ACK
3.050200,37,0x03,0xFF,Read,ACK
3.050200,37,0x03,0xFF,Read,ACK
3.050200,37,0x03,0xFF,Read,ACK
3.050200,37,0x03,0xFF,Read,ACK
3.050200,37,0x03,0xFF,Read,ACK
3.050200,37,0x03,0xFF,Read,ACK
3.050200,37,0x03,0xFF,Read,ACK
3.050200,37,0x03,0xFF,Read,ACK
3.050200,37,0x03,0xFF,Read,ACK
3.050200,37,0x03,0xFF,Read,ACK
3.050200,37,0x03,0xFF,Read,ACK
3.050200,37,0x03,0xFF,Read,ACK
3.050200,37,0x03,0xFF,Read,ACK
3.050200,37,0x03,0xFF,Read,ACK
3.050200,37,0x03,0xFF,Read,ACK
3.050200,37,0x03,0xFF,Read,ACK
3.050200,37,0x03,0xFF,Read,ACK
3.050200,37,0x03,0xFF,Read,ACK
3.050200,37,0x03,0xFF,Read,ACK
3.050200,37,0x03,0xFF,Read,ACK
3.050200,37,0x03,0xFF,Read,ACK
3.050200,37,0x03,0xFF,Read,ACK
3.050200,37,0x03,0xFF,Read,ACK
3.050200,37,0x03,0xFF,Read,ACK
3.050200,37,0x03,0xFF,Read,ACK
3.050200,37,0x03,0xFF,Read,ACK
3.050200,37,0x03,0xFF,Read,ACK
3.050200,37,0x03,0xFF,Read,ACK
3.050200,37,0x03,0xFF,Read,ACK
3.050200,37,0x03,0xFF,Read,ACK
3.050200,37,0x03,0xFF,Read,ACK
3.050200,37,0x03,0xFF,Read,ACK
3.050200,37,0x03,0xFF,Read,ACK
3.050200,37,0x03,0xFF,Read,ACK
3.050200,37,0x03,0xFF,Read,ACK
3.050200,37,0x03,0xFF,Read,ACK
3.050200,37,0x03,0xFF,Read,ACK
3.050200,37,0x03,0xFF,Read,ACK
3.050200,37,0x03,0xFF,Read,ACK
3.050200,37,0x03,0xFF,Read,ACK
3.050200,37,0x03,0xFF,Read,ACK
3.050200,37,0x03,0xFF,Read,ACK
3.050200,37,0x03,0xFF,Read,ACK
3.050200,37,0x03,0xFF,Read,ACK
3.050200,37,0x03,0xFF,Read,ACK
3.050200,37,0x03,0xFF,Read,ACK
3.050200,37,0x03,0xFF,Read,ACK
3.050200,37,0x03,0xFF,Read,ACK
3.050200,37,0x03,0xFF,Read,ACK
3.050200,37,0x03,0xFF,Read,ACK
3.050200,37,0x03,0xFF,Read,ACK
3.050200,37,0x03,0xFF,Read,ACK
3.050200,37,0x03,0xFF,Read,ACK
3.050200,37,0x03,0xFF,Read,ACK
3.050200,37,0x03,0xFF,Read,ACK
3.050200,37,0x03,0xFF,Read,ACK
3.050200,37,0x03,0xFF,Read,ACK
3.050200,37,0x03,0xFF,Read,ACK
3.050200,37,0x03,0xFF,Read,ACK
3.050200,37,0x03,0xFF,Read,ACK
3.050200,37,0x03,0x00,Read,ACK
3.050200,37,0x03,0x00,Read,ACK
3.050200,37,0x03,0x00,Read,ACK
3.050200,37,0x03,0x00,Read,ACK
3.050200,37,0x03,0x00,Read,ACK
3.050200,37,0x03,0x00,Read,ACK
3.050200,37,0x03,0x6F,Read,NAK
